! Filename: 2_54G1.001
! Title: BGA2001 X0297-20 HFE=80
! Bias: Vce=2.5V; Ic=4mA
! Company: Philips Semiconductors NL
! User: Quality&Reliability T&D
! Measure time: 23 Oct 1998 / 08:33:48
#  MHz  S  MA  R 50
! Freq       S11             S21             S12             S22    :
  100  0.83360 -6.890  9.85550 172.58 0.005249 58.489  0.92824 -5.647
  200  0.83599 -14.10  9.63002 165.90 0.010078 80.284  0.91710 -11.06
  300  0.82400 -21.93  9.43530 159.38 0.017248 79.280  0.89449 -16.43
  400  0.80412 -29.32  9.14299 153.41 0.023299 74.602  0.86570 -21.24
  500  0.78256 -36.22  8.76706 147.95 0.028560 70.501  0.83854 -25.59
  600  0.75791 -42.97  8.47727 142.77 0.033152 66.919  0.81091 -29.59
  700  0.73327 -49.34  8.12713 137.90 0.037251 63.842  0.78371 -33.23
  800  0.70429 -55.74  7.86096 133.01 0.040834 60.942  0.75549 -36.66
  900  0.67696 -61.82  7.51087 128.25 0.043822 58.525  0.72764 -39.84
 1000  0.65077 -67.77  7.16624 124.08 0.046600 56.469  0.70020 -43.04
 1200  0.60657 -79.62  6.59237 116.21 0.051197 52.968  0.64962 -49.11
 1400  0.57256 -90.77  6.13379 109.14 0.055033 50.358  0.61037 -54.65
 1600  0.54340 -100.3  5.60579 102.77 0.057617 49.005  0.57569 -59.28
 1800  0.51151 -109.3  5.10167 97.493 0.059590 48.958  0.53826 -63.08
 2000  0.48289 -119.2  4.72253 91.976 0.061543 48.206  0.49616 -67.38
 2200  0.47223 -129.5  4.39351 86.757 0.063487 47.611  0.46147 -73.16
 2400  0.47932 -137.8  4.08375 81.799 0.065637 47.961  0.44405 -79.46
 2600  0.48689 -143.7  3.80605 77.448 0.068145 49.507  0.44022 -84.15
 2800  0.48051 -149.0  3.61883 73.798 0.071278 49.982  0.43043 -87.08
 3000  0.46975 -155.3  3.41474 70.225 0.074002 50.925  0.40680 -90.11
! Noise data:
!Freq   Fmin    Gamma-opt       rn
  900	1.25	0.38	19.1	0.29
 1000	1.29	0.36	15.6	0.29
 1800	1.222	0.331	64.56	0.233
 2000	1.246	0.303	72.5	0.251
 2200	1.402	0.246	83.7	0.215
 2400	1.526	0.227	96.28	0.203
