! SIEMENS Small Signal Semiconductors
! BFP420
! Si NPN RF SIEGET Grounded Emitter Transistor in SOT343
! VCE = 3 V     IC = 5 mA     
! Common Emitter S-Parameters:                      January  1996
# GHz  S  MA  R  50
!  f         S11            S21            S12            S22
! GHz     MAG   ANG      MAG   ANG      MAG   ANG      MAG   ANG
 0.010  0.7931   -1.2  15.174  179.0  0.0012   70.3  0.9878   -0.6
 0.020  0.7993   -2.5  14.996  178.4  0.0018   79.3  0.9860   -1.1
 0.050  0.7939   -5.6  15.044  175.5  0.0043   80.2  0.9850   -2.9
 0.100  0.7889  -11.1  14.975  171.9  0.0082   82.2  0.9829   -5.9
 0.150  0.7875  -16.9  14.931  167.8  0.0125   79.2  0.9753   -8.8
 0.200  0.7822  -22.2  14.639  163.6  0.0162   77.4  0.9668  -11.7
 0.250  0.7721  -27.9  14.495  160.1  0.0198   77.1  0.9534  -14.7
 0.300  0.7656  -33.5  14.352  156.1  0.0234   73.0  0.9398  -17.2
 0.400  0.7399  -44.2  13.780  148.2  0.0302   68.1  0.9066  -22.5
 0.500  0.7091  -53.5  13.007  141.2  0.0361   63.7  0.8668  -27.2
 0.600  0.6877  -63.4  12.464  134.6  0.0411   59.5  0.8266  -31.3
 0.700  0.6576  -72.3  11.686  128.9  0.0451   56.1  0.7886  -35.2
 0.800  0.6327  -80.9  11.062  123.4  0.0497   53.2  0.7482  -38.9
 0.900  0.6124  -88.1  10.408  118.3  0.0530   50.7  0.7052  -42.0
 1.000  0.5930  -96.4   9.841  113.8  0.0557   48.1  0.6719  -44.4
 1.100  0.5734 -103.6   9.249  109.4  0.0586   45.6  0.6434  -47.2
 1.200  0.5551 -110.4   8.687  105.3  0.0610   44.2  0.6112  -50.0
 1.300  0.5411 -116.5   8.197  101.8  0.0633   42.7  0.5756  -52.1
 1.400  0.5314 -122.6   7.731   98.4  0.0651   41.2  0.5521  -53.5
 1.500  0.5206 -128.1   7.362   94.7  0.0667   39.9  0.5327  -55.6
 1.600  0.5191 -134.2   6.994   91.6  0.0682   39.7  0.5093  -57.9
 1.700  0.5109 -139.4   6.665   88.7  0.0699   38.5  0.4798  -59.3
 1.800  0.5033 -143.8   6.337   85.8  0.0714   37.5  0.4636  -59.8
 1.900  0.4998 -148.9   6.049   83.2  0.0733   37.0  0.4521  -61.7
 2.000  0.4970 -153.1   5.798   80.6  0.0747   36.6  0.4337  -64.0
 2.200  0.4954 -161.2   5.332   75.8  0.0783   35.4  0.3988  -65.3
 2.400  0.4903 -169.4   4.912   71.2  0.0808   34.7  0.3779  -69.7
 2.600  0.4923 -176.6   4.539   66.7  0.0842   34.0  0.3461  -70.3
 2.800  0.4939  176.5   4.257   62.6  0.0871   32.9  0.3329  -75.2
 3.000  0.4995  170.5   3.981   58.2  0.0905   31.9  0.3024  -75.7
 3.500  0.5167  155.2   3.423   48.6  0.0985   29.3  0.2699  -84.1
 4.000  0.5349  143.6   2.982   39.6  0.1065   27.5  0.2339  -98.0
 4.500  0.5676  132.8   2.625   31.0  0.1156   24.7  0.1925 -111.8
 5.000  0.5886  124.9   2.354   23.2  0.1230   21.8  0.1686 -118.7
 5.500  0.6134  117.5   2.134   15.4  0.1317   19.1  0.1768 -130.8
 6.000  0.6203  110.9   1.938    7.7  0.1391   15.6  0.1733 -151.5
! 
!  f       Fmin   Gammaopt  rn/50
! GHz       dB    MAG  ANG    -
 0.900      0.90  0.28   41   0.17
 1.800      1.05  0.20   82   0.13
 2.400      1.25  0.20  124   0.11
 3.000      1.38  0.22 -175   0.10
 4.000      1.55  0.33 -157   0.11
 5.000      1.75  0.45 -142   0.10
 6.000      2.20  0.53 -123   0.30
!
! SIEMENS AG  Semiconductor Group, Munich
