! SIEMENS Discrete & RF Semiconductors
! BFP450
! Si NPN RF SIEGET Grounded Emitter Transistor in SOT343
! VCE = 4 V     IC = 60 mA     
! Common Emitter S-Parameters:                     February  1998
# GHz  S  MA  R  50
!  f         S11            S21            S12            S22
! GHz     MAG   ANG      MAG   ANG      MAG   ANG      MAG   ANG
 0.010  0.0927 -159.4  54.686  176.1  0.0038   22.4  0.6916   -4.2
 0.020  0.1206 -140.6  53.809  172.5  0.0046   33.5  0.6905  -10.0
 0.050  0.2169 -129.2  52.078  161.5  0.0079   49.5  0.6849  -26.4
 0.100  0.3685 -134.0  46.314  145.8  0.0113   53.4  0.6352  -50.7
 0.150  0.4764 -142.4  39.985  133.5  0.0155   49.3  0.5863  -70.7
 0.200  0.5428 -149.4  34.190  124.3  0.0179   48.3  0.5429  -86.3
 0.250  0.5839 -155.0  29.496  117.1  0.0194   47.7  0.5112  -99.7
 0.300  0.6163 -159.5  25.710  111.1  0.0213   47.1  0.4908 -109.2
 0.400  0.6509 -166.9  20.048  102.3  0.0238   48.9  0.4640 -125.6
 0.500  0.6702 -171.7  16.410   96.4  0.0269   49.1  0.4464 -137.1
 0.600  0.6751 -175.6  13.708   90.7  0.0292   50.3  0.4357 -145.1
 0.700  0.6877 -178.8  11.811   87.0  0.0324   51.5  0.4371 -151.3
 0.800  0.6954  177.9  10.279   83.3  0.0358   52.2  0.4429 -157.3
 0.900  0.6989  175.6   9.148   80.4  0.0386   52.9  0.4416 -162.7
 1.000  0.7110  173.1   8.234   77.2  0.0415   53.6  0.4377 -166.6
 1.100  0.7132  171.0   7.393   74.8  0.0444   53.9  0.4434 -169.5
 1.200  0.7178  168.4   6.700   72.4  0.0481   53.9  0.4557 -173.1
 1.300  0.7149  166.8   6.162   70.4  0.0514   53.6  0.4568 -177.1
 1.400  0.7221  164.7   5.699   68.3  0.0544   53.6  0.4517 -179.6
 1.500  0.7230  163.1   5.300   65.9  0.0573   53.1  0.4566  178.7
 1.600  0.7323  161.5   4.934   63.9  0.0609   52.7  0.4690  176.1
 1.700  0.7287  159.7   4.631   61.7  0.0643   52.2  0.4712  172.7
 1.800  0.7285  157.9   4.342   59.9  0.0671   51.4  0.4656  170.5
 1.900  0.7355  156.2   4.098   58.3  0.0703   50.6  0.4680  169.4
 2.000  0.7372  154.9   3.871   56.4  0.0733   49.9  0.4798  167.3
 2.200  0.7431  151.3   3.522   52.7  0.0801   48.4  0.4787  162.1
 2.400  0.7431  148.0   3.195   49.5  0.0857   46.6  0.4930  160.0
 2.600  0.7495  144.9   2.920   45.7  0.0924   44.8  0.4908  154.7
 2.800  0.7569  142.0   2.719   42.3  0.0976   42.5  0.5076  153.0
 3.000  0.7608  138.8   2.521   38.8  0.1040   40.3  0.5075  147.7
 3.500  0.7800  130.8   2.129   30.4  0.1165   34.8  0.5234  141.3
 4.000  0.7871  123.8   1.821   22.5  0.1281   29.8  0.5618  135.3
 4.500  0.8021  117.2   1.577   15.0  0.1389   24.4  0.5931  127.5
 5.000  0.8112  112.2   1.405    8.1  0.1477   19.3  0.5895  120.4
 5.500  0.8291  107.0   1.275    1.2  0.1573   14.8  0.5919  117.2
 6.000  0.8144  101.9   1.152   -5.8  0.1642    9.9  0.6248  112.0
! 
!  f       Fmin   Gammaopt  rn/50
! GHz       dB    MAG  ANG    -
 0.450      1.50  0.53 -172   0.08
 0.900      1.52  0.50 -161   0.10
 1.800      1.84  0.61 -150   0.12
 2.400      2.02  0.63 -139   0.17
 3.000      2.23  0.66 -133   0.25
 4.000      2.44  0.69 -117   0.52
!
! SIEMENS AG  Semiconductor Group, Munich
