! SIEMENS Discrete & RF Semiconductors
! BFP520
! Si NPN RF SIEGET Grounded Emitter Transistor in SOT343
! VCE = 2 V     IC = 5 mA     
! Common Emitter S-Parameters:                          May  1998
# GHz  S  MA  R  50
!  f         S11            S21            S12            S22
! GHz     MAG   ANG      MAG   ANG      MAG   ANG      MAG   ANG
 0.010  0.9037   -0.6  14.456  179.1  0.0008   32.8  0.9736   -0.1
 0.020  0.9016   -1.1  14.451  178.6  0.0009   10.2  0.9709   -0.3
 0.050  0.9020   -2.4  14.382  177.2  0.0023   86.9  0.9748   -1.5
 0.100  0.9024   -5.0  14.204  174.9  0.0042   86.5  0.9763   -3.1
 0.150  0.9014   -7.7  14.250  172.6  0.0066   84.7  0.9755   -4.8
 0.200  0.8991  -10.1  14.195  170.0  0.0092   88.3  0.9747   -6.5
 0.250  0.8984  -12.6  14.052  167.8  0.0106   83.4  0.9727   -8.2
 0.300  0.8937  -15.0  14.026  165.3  0.0136   84.2  0.9703   -9.8
 0.400  0.8832  -20.1  13.874  160.5  0.0182   81.8  0.9624  -13.3
 0.500  0.8736  -25.4  13.700  155.9  0.0225   79.6  0.9509  -16.7
 0.600  0.8592  -30.6  13.457  151.1  0.0274   77.4  0.9382  -20.2
 0.700  0.8435  -35.8  13.171  146.4  0.0324   76.0  0.9204  -23.5
 0.800  0.8219  -40.8  12.873  142.0  0.0362   73.6  0.9011  -26.9
 0.900  0.8006  -45.9  12.505  137.7  0.0402   71.0  0.8771  -30.1
 1.000  0.7794  -50.5  12.111  133.7  0.0457   68.1  0.8526  -33.1
 1.100  0.7527  -55.8  11.788  129.5  0.0494   65.6  0.8298  -36.2
 1.200  0.7303  -60.2  11.358  126.1  0.0522   63.4  0.8034  -38.9
 1.300  0.7026  -65.0  11.024  122.3  0.0561   61.2  0.7774  -41.7
 1.400  0.6766  -69.3  10.609  118.8  0.0585   58.5  0.7501  -44.3
 1.500  0.6547  -74.0  10.311  115.3  0.0621   57.1  0.7244  -46.5
 1.600  0.6243  -78.5   9.905  112.1  0.0655   54.7  0.6984  -49.0
 1.700  0.6059  -82.5   9.601  109.2  0.0679   53.1  0.6712  -51.1
 1.800  0.5775  -87.0   9.270  106.0  0.0700   51.2  0.6462  -53.2
 1.900  0.5600  -91.0   8.933  103.3  0.0720   49.5  0.6213  -54.9
 2.000  0.5342  -94.8   8.643  100.5  0.0741   48.1  0.6005  -56.6
 2.200  0.4973 -101.9   8.063   95.4  0.0784   45.6  0.5569  -59.6
 2.400  0.4637 -109.5   7.537   90.9  0.0815   42.9  0.5154  -62.7
 2.600  0.4359 -117.5   7.090   86.4  0.0848   40.6  0.4769  -65.3
 2.800  0.4062 -125.2   6.676   82.2  0.0879   38.8  0.4424  -67.9
 3.000  0.3825 -132.1   6.316   78.1  0.0918   37.0  0.4116  -70.0
 3.500  0.3417 -152.4   5.538   68.9  0.0990   32.7  0.3480  -77.4
 4.000  0.3292 -172.4   4.907   60.0  0.1063   29.1  0.2915  -87.1
 4.500  0.3367  169.8   4.387   51.8  0.1131   24.7  0.2427  -97.3
 5.000  0.3548  155.1   3.951   44.0  0.1185   21.5  0.2016 -104.7
 5.500  0.3662  143.0   3.559   36.7  0.1232   18.3  0.1623 -111.6
 6.000  0.3891  133.8   3.247   30.2  0.1289   15.1  0.1263 -119.7
! 
!  f       Fmin   Gammaopt  rn/50
! GHz       dB    MAG  ANG    -
 0.450      0.89  0.61    6   0.66
 0.900      0.91  0.50   11   0.32
 1.800      1.04  0.37   22   0.29
 2.400      1.14  0.34   32   0.30
 3.000      1.27  0.29   46   0.28
 4.000      1.43  0.16   70   0.23
!
! SIEMENS AG  Semiconductor Group, Munich
