! Infineon Technologies  Discrete & RF Semiconductors
! BFP540
! Si NPN RF SIEGET Grounded Emitter Transistor in SOT343
! VCE = 1.5 V     IC = 4 mA     
! Common Emitter S-Parameters:                        April  1999
# GHz  S  MA  R  50
!  f         S11            S21            S12            S22
! GHz     MAG   ANG      MAG   ANG      MAG   ANG      MAG   ANG
 0.010  0.8819   -1.1  13.220 -179.8  0.0009   70.8  0.9905   -0.5
 0.020  0.8821   -2.1  13.068  178.6  0.0017  100.7  0.9972   -1.3
 0.050  0.8814   -5.1  13.021  176.2  0.0047   89.3  0.9909   -2.8
 0.100  0.8761  -10.3  12.975  172.8  0.0096   87.0  0.9887   -5.6
 0.150  0.8755  -15.7  12.908  168.7  0.0139   80.9  0.9820   -8.4
 0.200  0.8744  -20.6  12.814  165.1  0.0183   80.7  0.9760  -11.2
 0.250  0.8664  -25.5  12.601  161.4  0.0223   77.5  0.9654  -13.9
 0.300  0.8568  -30.6  12.486  157.8  0.0272   76.0  0.9545  -16.7
 0.400  0.8383  -40.5  12.043  150.7  0.0350   69.9  0.9272  -21.9
 0.500  0.8150  -50.0  11.637  144.0  0.0430   66.0  0.8921  -26.9
 0.600  0.7933  -59.5  11.104  137.5  0.0496   62.0  0.8545  -31.7
 0.700  0.7686  -68.2  10.558  131.8  0.0562   57.7  0.8151  -35.9
 0.800  0.7434  -76.6  10.044  126.3  0.0614   53.8  0.7749  -39.9
 0.900  0.7210  -84.7   9.470  121.4  0.0654   50.3  0.7315  -43.5
 1.000  0.7006  -91.4   8.933  117.0  0.0700   47.2  0.6953  -46.5
 1.100  0.6769  -99.4   8.490  112.3  0.0736   44.4  0.6595  -49.7
 1.200  0.6615 -105.8   8.033  108.6  0.0758   41.7  0.6237  -52.4
 1.300  0.6433 -112.4   7.627  104.8  0.0785   39.6  0.5911  -55.1
 1.400  0.6295 -117.8   7.180  101.5  0.0804   37.5  0.5619  -57.2
 1.500  0.6175 -123.9   6.870   98.0  0.0825   35.9  0.5357  -59.1
 1.600  0.6033 -130.0   6.514   94.7  0.0850   33.9  0.5070  -61.1
 1.700  0.5962 -134.5   6.223   92.1  0.0860   32.6  0.4798  -62.9
 1.800  0.5875 -140.0   5.937   89.0  0.0873   31.3  0.4595  -64.4
 1.900  0.5821 -144.3   5.672   86.4  0.0888   29.8  0.4372  -65.9
 2.000  0.5718 -149.1   5.451   83.8  0.0896   28.9  0.4175  -67.4
 2.200  0.5627 -156.8   5.016   79.0  0.0920   27.2  0.3849  -69.4
 2.400  0.5581 -164.8   4.624   74.5  0.0933   25.5  0.3507  -72.3
 2.600  0.5558 -172.3   4.304   70.0  0.0948   24.2  0.3223  -74.3
 2.800  0.5551 -179.1   4.021   65.9  0.0970   23.0  0.2952  -77.0
 3.000  0.5559  174.7   3.781   61.8  0.0989   22.3  0.2712  -79.3
 3.500  0.5693  159.5   3.261   52.3  0.1037   19.8  0.2253  -89.0
 4.000  0.5927  146.5   2.848   43.1  0.1075   17.8  0.1839 -102.5
 4.500  0.6086  136.0   2.501   34.6  0.1115   15.8  0.1575 -117.9
 5.000  0.6330  127.9   2.225   26.9  0.1151   15.0  0.1435 -130.8
 5.500  0.6469  120.4   1.992   19.8  0.1205   14.0  0.1265 -145.4
 6.000  0.6646  115.1   1.810   13.3  0.1283   13.0  0.1171 -162.1
! 
!  f       Fmin   Gammaopt  rn/50
! GHz       dB    MAG  ANG    -
 0.900      0.65  0.00    0   0.00
 1.800      0.92  0.00    0   0.00
 2.400      1.12  0.00    0   0.00
 3.000      1.25  0.00    0   0.00
 4.000      1.42  0.00    0   0.00
 5.000      1.88  0.00    0   0.00
 6.000      2.15  0.00    0   0.00
!
! (c) 1999  Infineon Technologies AG, Munich
