! Infineon Technologies  Discrete & RF Semiconductors
! BFP620
! SiGe NPN RF Grounded Emitter Transistor in SOT343
! VCE = 1.5 V     IC = 2 mA     
! Common Emitter S-Parameters:                     February  2000
# GHz  S  MA  R  50
!  f         S11            S21            S12            S22
! GHz     MAG   ANG      MAG   ANG      MAG   ANG      MAG   ANG
 0.010  0.9664   -0.8   6.599 -180.0  0.0012   84.1  0.9999    0.7
 0.020  0.9581   -1.0   6.505  179.3  0.0017   82.1  0.9920   -0.8
 0.050  0.9695   -3.2   6.540  177.8  0.0052   96.9  0.9975   -1.8
 0.100  0.9593   -5.6   6.490  175.9  0.0104   87.7  0.9979   -3.5
 0.150  0.9671   -9.2   6.529  173.5  0.0165   85.1  0.9963   -5.4
 0.200  0.9643  -11.8   6.521  171.1  0.0216   85.9  0.9942   -7.1
 0.250  0.9578  -14.8   6.473  169.0  0.0269   82.1  0.9911   -9.0
 0.300  0.9540  -18.0   6.454  166.5  0.0322   81.1  0.9884  -10.8
 0.400  0.9481  -24.0   6.420  161.9  0.0436   77.8  0.9777  -14.4
 0.500  0.9360  -29.9   6.340  157.5  0.0535   74.2  0.9641  -17.9
 0.600  0.9274  -36.0   6.259  152.9  0.0641   71.0  0.9485  -21.4
 0.700  0.9147  -42.2   6.159  148.7  0.0743   67.6  0.9300  -24.8
 0.800  0.8943  -47.7   6.063  144.5  0.0834   63.7  0.9095  -28.2
 0.900  0.8800  -53.9   5.924  140.3  0.0926   60.3  0.8867  -31.5
 1.000  0.8647  -59.0   5.775  136.6  0.1006   57.0  0.8636  -34.3
 1.100  0.8428  -64.9   5.670  132.4  0.1086   53.9  0.8402  -37.5
 1.200  0.8305  -70.6   5.515  129.1  0.1150   50.7  0.8136  -40.5
 1.300  0.8105  -75.9   5.411  125.4  0.1218   48.0  0.7896  -43.5
 1.400  0.7909  -81.4   5.230  121.7  0.1270   45.1  0.7642  -46.2
 1.500  0.7768  -86.9   5.142  118.1  0.1322   42.8  0.7407  -48.5
 1.600  0.7514  -92.1   4.974  114.7  0.1378   40.2  0.7143  -51.0
 1.700  0.7451  -97.2   4.868  111.7  0.1419   37.4  0.6858  -53.5
 1.800  0.7235 -102.7   4.743  108.0  0.1457   35.0  0.6599  -55.8
 1.900  0.7095 -107.4   4.597  105.1  0.1485   32.7  0.6364  -57.9
 2.000  0.6913 -112.2   4.487  101.7  0.1516   31.0  0.6136  -59.8
 2.200  0.6658 -120.9   4.229   96.0  0.1570   27.2  0.5695  -63.2
 2.400  0.6459 -130.0   3.980   90.8  0.1605   23.4  0.5269  -67.5
 2.600  0.6321 -138.9   3.774   85.7  0.1630   20.2  0.4847  -70.7
 2.800  0.6134 -147.7   3.586   80.6  0.1652   17.3  0.4462  -74.5
 3.000  0.6005 -155.9   3.415   75.6  0.1675   14.9  0.4117  -76.9
 3.500  0.5919 -175.2   3.022   64.4  0.1719    8.5  0.3399  -87.0
 4.000  0.5986  166.8   2.675   53.7  0.1706    2.8  0.2735  -98.7
 4.500  0.6056  152.3   2.368   44.0  0.1670   -1.8  0.2257 -111.0
 5.000  0.6233  140.5   2.111   35.3  0.1618   -4.7  0.1949 -121.3
 5.500  0.6358  130.8   1.893   27.7  0.1588   -6.4  0.1614 -131.7
 6.000  0.6565  123.2   1.717   20.9  0.1579   -7.4  0.1393 -146.3
! 
!  f       Fmin   Gammaopt  rn/50
! GHz       dB    MAG  ANG    -
 0.900      0.59  0.57   23   0.29
 1.800      0.70  0.28   73   0.22
 2.400      0.79  0.27   89   0.16
 3.000      1.01  0.29  119   0.13
 4.000      1.16  0.37  167   0.06
 5.000      1.59  0.41 -153   0.10
 6.000      1.79  0.48 -119   0.22
!
! (c) 1999  Infineon Technologies AG, Munich

