! Filename:       BFG135C.S2P                                Version:   2.0
! Philips part #: BFG135                                     Date: Jul 1990
! Bias condition: Vce=10V, Ic=50mA
!
#  MHz  S  MA  R  50
! Freq       S11            S21            S12            S22     !GUM [dB]
   40    .664  -52.8  34.530  148.0    .022   67.1    .833  -36.3 !    38.4
  100    .565 -104.1  22.367  120.3    .038   51.3    .561  -69.8 !    30.3
  200    .534 -140.8  12.969  102.0    .052   49.2    .353  -98.9 !    24.3
  300    .509 -157.7   8.879   92.9    .062   52.4    .276 -116.8 !    20.6
  400    .514 -168.4   6.794   86.8    .074   55.4    .243 -130.0 !    18.2
  500    .521 -175.8   5.501   81.4    .085   58.0    .230 -140.3 !    16.4
  600    .520  178.3   4.640   76.1    .097   59.1    .223 -148.5 !    14.9
  700    .516  174.1   4.048   71.9    .109   60.4    .221 -155.3 !    13.7
  800    .532  167.2   3.530   67.8    .124   60.9    .221 -161.7 !    12.6
  900    .520  163.7   3.201   65.2    .136   60.7    .225 -167.4 !    11.7
 1000    .538  160.0   2.885   61.0    .150   60.6    .232 -173.1 !    10.9
 1200    .553  151.3   2.466   54.3    .176   59.9    .252  176.9 !     9.7
 1400    .595  144.5   2.085   47.5    .201   58.0    .279  169.5 !     8.6
 1600    .589  137.9   1.850   41.7    .226   57.2    .308  162.9 !     7.6
 1800    .618  130.8   1.696   35.4    .257   52.9    .331  155.2 !     7.2
 2000    .632  124.8   1.538   30.3    .282   50.7    .364  147.6 !     6.6
 2200    .658  117.9   1.439   22.0    .303   48.2    .405  140.9 !     6.4
 2400    .688  113.0   1.260   20.5    .319   46.6    .440  134.9 !     5.7
 2600    .702  109.3   1.202   14.7    .350   42.4    .466  128.1 !     5.6
 2800    .695  101.8   1.108    7.2    .361   37.2    .487  120.1 !     4.9
 3000    .707   93.7   1.071    4.2    .379   35.3    .519  112.3 !     5.0
