! Filename:       BFG33G.S2P                                 Version:   2.0
! Philips part #: BFG 33                                     Date: Jul 1990
! Bias condition: Vce=5V, Ic=10mA
! IN LINE PINNING: same data as with cross emitter pinning.
!
#  MHz  S  MA  R  50
! Freq       S11            S21            S12            S22     !GUM [dB]
   40    .828   -4.8  13.346  173.1    .005   83.9    .964   -4.6 !    39.0
  100    .813  -11.9  12.673  164.5    .012   79.3    .941  -11.5 !    36.1
  200    .752  -23.5  12.218  151.5    .022   72.0    .867  -21.3 !    31.4
  300    .677  -34.7  11.599  141.1    .031   67.2    .784  -28.4 !    28.1
  400    .596  -45.6  10.955  132.1    .037   63.8    .714  -33.6 !    25.8
  500    .524  -55.2  10.150  124.8    .043   61.8    .654  -37.7 !    23.9
  600    .449  -65.1   9.558  118.1    .048   61.1    .605  -40.4 !    22.6
  700    .387  -73.0   8.832  112.4    .053   60.5    .568  -42.2 !    21.3
  800    .338  -79.6   8.108  107.6    .057   60.4    .539  -43.5 !    20.2
  900    .297  -85.3   7.408  103.7    .062   60.3    .516  -44.5 !    19.1
 1000    .264  -91.3   6.812  100.3    .066   60.3    .496  -45.5 !    18.2
 1200    .211 -104.4   5.875   94.6    .074   60.2    .463  -47.5 !    16.6
 1400    .184 -118.2   5.207   89.7    .083   60.0    .441  -49.7 !    15.4
 1600    .168 -127.5   4.620   85.5    .092   59.9    .430  -52.0 !    14.3
 1800    .146 -135.9   4.151   82.4    .100   59.9    .422  -53.4 !    13.3
 2000    .121 -149.0   3.756   78.9    .108   59.4    .410  -54.5 !    12.4
 2200    .115 -169.8   3.454   75.8    .116   58.7    .391  -56.4 !    11.5
 2400    .130  175.8   3.192   72.2    .123   57.8    .373  -60.1 !    10.8
 2600    .143  168.9   2.955   69.7    .131   57.1    .368  -64.9 !    10.1
 2800    .143  162.9   2.801   66.9    .139   56.1    .374  -68.7 !     9.7
 3000    .144  153.0   2.617   64.0    .146   55.5    .378  -70.6 !     9.1
 3250    .162  140.6   2.439   61.0    .155   54.8    .367  -72.5 !     8.5
 3500    .185  135.3   2.277   58.0    .163   53.7    .348  -77.1 !     7.9
 3750    .191  131.0   2.176   54.6    .170   52.6    .345  -83.8 !     7.5
 4000    .197  122.2   2.028   51.6    .179   51.7    .356  -88.5 !     6.9
 4250    .222  114.3   1.951   49.4    .186   50.5    .361  -91.1 !     6.6
 4500    .248  112.5   1.839   45.8    .193   49.7    .350  -94.6 !     6.1
 4750    .250  111.0   1.767   43.3    .200   48.9    .344 -100.8 !     5.8
 5000    .246  104.2   1.700   40.8    .206   47.1    .355 -107.1 !     5.5
 5250    .267   96.2   1.644   38.0    .211   46.5    .371 -111.2 !     5.3
 5500    .299   93.8   1.537   35.8    .221   44.8    .376 -114.3 !     4.8
 5750    .306   93.5   1.498   33.3    .223   45.0    .376 -118.7 !     4.6
 6000    .296   89.6   1.434   29.8    .232   42.9    .389 -124.4 !     4.2
! Noise data:
! Freq.     Fmin        Gamma-opt         rn
  500       3.10     .528     5.30       1.18
 1000       3.10     .477     12.7       1.33
 2000       3.60     .418     39.1       .980
