! Filename:       BFR96SG.S2P                                Version:   2.0
! Philips part #: BFR96S                                     Date: Jul 1990
! Bias condition: Vce=10V, Ic=50mA
! 
#  MHz  S  MA  R  50
! Freq       S11            S21            S12            S22     !GUM [dB]
   40    .333  -96.0  49.624  130.8    .012   70.5    .648  -43.8 !    36.8
  100    .345 -144.7  25.627  107.3    .023   67.5    .348  -61.9 !    29.3
  200    .354 -168.9  13.375   94.2    .041   73.3    .208  -68.8 !    23.3
  300    .365 -179.7   9.016   87.9    .058   74.3    .165  -71.9 !    19.8
  400    .373  173.9   6.820   82.4    .076   74.0    .148  -76.4 !    17.4
  500    .380  166.6   5.483   78.7    .092   73.3    .143  -81.5 !    15.5
  600    .377  162.0   4.636   74.5    .110   71.3    .144  -85.9 !    14.1
  700    .377  158.1   3.983   71.4    .128   70.5    .146  -88.4 !    12.8
  800    .380  152.0   3.537   66.8    .144   69.2    .148  -91.5 !    11.7
  900    .375  145.1   3.151   63.9    .160   67.9    .151  -95.6 !    10.7
 1000    .376  141.4   2.846   61.3    .175   66.4    .151 -100.5 !     9.8
 1200    .422  131.9   2.411   55.0    .206   63.4    .156 -110.9 !     8.6
 1400    .424  123.3   2.097   47.8    .233   60.2    .173 -122.6 !     7.4
 1600    .452  117.1   1.869   42.5    .261   58.0    .192 -131.0 !     6.6
 1800    .448  112.1   1.707   37.0    .288   53.6    .213 -137.2 !     5.8
 2000    .488  100.5   1.556   33.1    .311   51.0    .221 -143.9 !     5.2
 2200    .506   94.5   1.483   28.3    .333   48.3    .232 -153.5 !     4.9
 2400    .524   88.7   1.351   22.5    .355   46.6    .251 -163.9 !     4.3
 2600    .560   86.2   1.262   19.6    .379   43.0    .282 -171.8 !     4.0
 2800    .547   78.5   1.183   14.6    .387   39.7    .313 -177.4 !     3.5
 3000    .563   71.9   1.114   10.6    .406   38.5    .330  177.4 !     3.1
