! Filename:       BFR96SE.S2P                                Version:   2.0
! Philips part #: BFR96S                                     Date: Jul 1990
! Bias condition: Vce=10V, Ic=15mA
! 
#  MHz  S  MA  R  50
! Freq       S11            S21            S12            S22     !GUM [dB]
   40    .548  -54.7  30.764  146.9    .018   69.5    .840  -26.8 !    36.6
  100    .462 -106.3  19.847  119.7    .031   58.2    .563  -45.1 !    28.7
  200    .419 -144.5  11.344  101.2    .045   59.2    .365  -52.2 !    22.6
  300    .414 -163.2   7.807   91.9    .059   62.1    .292  -54.4 !    19.1
  400    .416 -174.5   5.940   85.3    .072   64.5    .262  -56.5 !    16.6
  500    .418  177.1   4.800   80.0    .087   65.7    .247  -59.6 !    14.7
  600    .419  170.2   4.039   75.4    .102   65.8    .242  -62.8 !    13.2
  700    .418  163.7   3.497   70.9    .116   65.8    .241  -66.2 !    12.0
  800    .419  157.6   3.088   66.8    .130   65.5    .241  -69.7 !    10.9
  900    .420  151.2   2.760   62.9    .144   64.9    .241  -73.0 !     9.9
 1000    .428  145.3   2.500   59.5    .159   64.2    .241  -77.0 !     9.1
 1200    .449  135.2   2.116   52.7    .186   62.4    .243  -86.2 !     7.7
 1400    .471  127.0   1.851   46.0    .211   60.5    .250  -96.7 !     6.7
 1600    .478  120.0   1.631   40.0    .238   59.1    .268 -106.1 !     5.7
 1800    .487  111.7   1.483   34.5    .263   56.0    .285 -114.4 !     5.0
 2000    .507  102.4   1.363   29.0    .288   54.0    .298 -122.0 !     4.4
 2200    .543   94.8   1.269   23.8    .310   51.5    .308 -131.2 !     4.0
 2400    .569   89.1   1.159   19.1    .331   50.5    .322 -141.7 !     3.5
 2600    .583   83.9   1.090   15.7    .358   47.2    .351 -151.0 !     3.1
 2800    .583   77.6   1.011    9.9    .369   44.4    .385 -158.4 !     2.6
 3000    .594   70.4    .933    6.7    .392   43.4    .409 -164.8 !     2.1
