! Filename:       BFR92AWG.S2P                               Version:   4.0
! Philips part #: BFR92AW                                    Date: Jun 1994
! Bias condition: Vce=10V, Ic=5mA
! 
#  MHz  S  MA  R  50
! Freq       S11            S21            S12            S22     !GUM [dB]
   40    .880  -10.1  11.925  169.8    .008   84.3    .988   -4.4 !    44.0
  100    .838  -24.5  11.189  157.6    .019   75.3    .948  -10.3 !    36.2
  200    .735  -46.5   9.939  141.6    .034   65.5    .851  -17.1 !    28.9
  300    .629  -65.4   8.686  129.0    .044   59.8    .764  -20.5 !    24.8
  400    .543  -81.1   7.485  119.3    .051   57.2    .700  -22.3 !    21.9
  500    .480  -93.9   6.476  112.1    .057   56.4    .654  -23.3 !    19.8
  600    .431 -104.9   5.687  106.3    .062   57.1    .624  -23.8 !    18.1
  700    .394 -114.1   5.039  101.6    .067   58.2    .605  -23.9 !    16.8
  800    .365 -122.4   4.515   97.5    .072   59.3    .591  -23.9 !    15.6
  900    .343 -130.2   4.070   93.8    .077   60.4    .580  -23.7 !    14.5
 1000    .325 -137.5   3.708   90.8    .082   61.6    .569  -23.6 !    13.6
 1200    .310 -151.4   3.159   85.3    .091   63.8    .545  -23.8 !    12.0
 1400    .311 -161.9   2.785   80.6    .102   66.0    .526  -25.3 !    10.7
 1600    .311 -169.6   2.474   76.4    .114   67.5    .517  -27.7 !     9.7
 1800    .304 -177.1   2.225   73.0    .124   69.4    .514  -29.2 !     8.7
 2000    .309  173.8   2.038   69.4    .136   70.8    .506  -30.1 !     7.9
 2200    .327  166.7   1.894   66.5    .147   72.0    .486  -31.6 !     7.2
 2400    .351  162.1   1.777   62.7    .160   72.8    .467  -35.0 !     6.6
 2600    .363  160.2   1.648   60.4    .171   73.4    .461  -39.5 !     6.0
 2800    .362  156.9   1.586   58.1    .183   74.7    .467  -42.6 !     5.7
 3000    .362  151.8   1.498   55.2    .197   75.2    .468  -44.5 !     5.2
! Noise data:
! Freq.     Fmin        Gamma-opt         rn
  500       1.60     .461     15.9       .360
 1000       2.10     .327     48.0       .420
 2000       3.00     .174    155.6       .260

