! SIEMENS Small Signal Semiconductors
! CFY30
! GaAs FET in SOT143
! VDS = 3.5 V     ID = 15 mA     
! Common Source S-Parameters:                        August  1990
# GHz  S  MA  R  50
!  f         S11            S21            S12            S22
! GHz     MAG   ANG      MAG   ANG      MAG   ANG      MAG   ANG
 1.000 0.9800  -18.0   2.230  157.0  0.0240   74.0  0.6900  -15.0
 2.000 0.9500  -39.0   2.220  136.0  0.0450   57.0  0.6600  -30.0
 3.000 0.8900  -64.0   2.210  110.0  0.0680   40.0  0.6100  -45.0
 4.000 0.8200  -89.0   2.230   86.0  0.0850   23.0  0.5600  -62.0
 5.000 0.7400 -115.0   2.190   61.0  0.0990    7.0  0.4900  -80.0
 6.000 0.6500 -142.0   2.110   36.0  0.1070  -10.0  0.4100  -98.0
 7.000 0.5800 -171.0   2.050   11.0  0.1130  -26.0  0.3200 -119.0
 8.000 0.5100  155.0   1.990  -15.0  0.1170  -41.0  0.2300 -147.0
 9.000 0.5000  120.0   1.850  -40.0  0.1150  -56.0  0.1600  167.0
10.000 0.5100   90.0   1.620  -65.0  0.1100  -69.0  0.1700  118.0
11.000 0.5300   65.0   1.440  -86.0  0.1070  -80.0  0.2500   84.0
12.000 0.5500   41.0   1.340 -107.0  0.1070  -92.0  0.3100   60.0
13.000 0.5900   17.0   1.200 -130.0  0.1040 -105.0  0.3800   35.0
14.000 0.6400   -3.0   1.030 -153.0  0.0990 -118.0  0.4500   16.0
15.000 0.6800  -19.0   0.860 -170.0  0.0920 -131.0  0.5100   -1.0
! 
!  f       Fmin   Gammaopt  rn/50
! GHz       dB    MAG  ANG    -
 2.000     1.00  0.72   27   0.84
 4.000     1.40  0.64   61   0.58
 6.000     2.00  0.46  101   0.38
 8.000     2.50  0.31  153   0.18
10.000     3.00  0.34 -133   0.28
12.000     3.50  0.41  -93   0.56
!
! SIEMENS AG  Semiconductor Group, Munich
