! SIEMENS Small Signal Semiconductors
! CFY77-10
! GaAs HEMT in MW-4
! VDS = 2 V     ID = 15 mA     
! Common Source S-Parameters:                     September  1992
# GHz  S  MA  R  50
!  f         S11            S21            S12            S22
! GHz     MAG   ANG      MAG   ANG      MAG   ANG      MAG   ANG
 1.000 0.9800  -22.8   5.220  159.6  0.0300   87.5  0.6300  -16.3
 2.000 0.9400  -46.1   5.080  139.0  0.0530   57.8  0.6000  -32.5
 3.000 0.8800  -68.4   4.780  120.1  0.0740   44.9  0.5400  -48.0
 4.000 0.8200  -90.6   4.480  101.1  0.0890   30.7  0.4800  -63.3
 5.000 0.7700 -110.8   4.180   84.0  0.1010   18.1  0.4200  -77.5
 6.000 0.7200 -131.4   3.910   67.3  0.1120    7.9  0.3500  -92.6
 7.000 0.6600 -153.6   3.650   50.2  0.1190   -3.3  0.2800 -110.8
 8.000 0.6300 -175.2   3.360   34.5  0.1220  -12.7  0.2200 -132.0
 9.000 0.6200  164.4   3.090   18.9  0.1200  -22.0  0.1600 -157.3
10.000 0.6200  145.0   2.820    4.0  0.1190  -29.5  0.1400  177.3
11.000 0.6400  128.3   2.590  -10.3  0.1190  -37.4  0.1500  136.2
12.000 0.6400  113.1   2.360  -23.5  0.1140  -44.0  0.1800  115.4
13.000 0.6600  101.3   2.180  -35.7  0.1140  -47.3  0.2300  100.9
14.000 0.6700   89.4   2.050  -48.2  0.1160  -53.1  0.2500   91.0
15.000 0.6900   73.6   1.940  -62.4  0.1160  -58.6  0.2800   75.4
16.000 0.7300   59.2   1.740  -75.9  0.1150  -65.8  0.3600   57.1
17.000 0.7600   51.7   1.550  -86.5  0.1120  -69.4  0.3900   53.1
18.000 0.7800   45.4   1.470  -96.7  0.1150  -72.3  0.4200   43.8
! 
!  f       Fmin   Gammaopt  rn/50
! GHz       dB    MAG  ANG    -
 2.000     0.40  0.79   27   0.27
 4.000     0.51  0.72   60   0.20
 6.000     0.61  0.63   92   0.12
 8.000     0.71  0.56  134   0.05
10.000     0.81  0.52  180   0.02
12.000     0.92  0.54 -135   0.06
14.000     1.04  0.59 -108   0.14
!
! SIEMENS AG  Semiconductor Group, Munich
