! Gali-51, Mini-Circuits Lab
! Id = 65 mA
# mhz s ma r 50

100	0.06	-0.53	8.12	175.21	0.09	0.08	0.1	-10.86
200	0.06	0.24	8.09	171.17	0.09	-1.13	0.11	-17.82
400	0.05	0.46	8	162.73	0.09	-1.23	0.11	-34.15
600	0.06	4.64	7.88	154.38	0.09	-2.41	0.11	-52.95
800	0.06	2.92	7.73	146.49	0.09	-2.73	0.12	-70.55
1000	0.05	3.08	7.54	138.52	0.09	-3.65	0.13	-86.59
1200	0.05	-0.07	7.39	130.84	0.09	-4.34	0.14	-100.54
1400	0.05	-2.63	7.16	123.43	0.09	-4.25	0.15	-113.01
1600	0.05	-7.83	6.95	116.21	0.09	-5.69	0.17	-124.09
1800	0.06	-11.02	6.75	109.29	0.09	-6.01	0.19	-133.7
2000	0.06	-17.23	6.54	102.51	0.09	-7.05	0.2	-141.77
2200	0.06	-27.49	6.35	95.98	0.09	-7.45	0.21	-148.59
2500	0.06	-43.03	6.07	86.39	0.09	-8.58	0.24	-156.67
2800	0.07	-54.13	5.83	77.27	0.09	-10.39	0.25	-164.71
3000	0.07	-66.09	5.7	71.33	0.09	-11.46	0.26	-170.4
3200	0.08	-77.33	5.57	65.38	0.09	-11.72	0.27	-175.52
3400	0.08	-86.33	5.43	59.56	0.09	-13.38	0.28	179.06
3600	0.09	-93.36	5.34	53.77	0.09	-14.3	0.28	173.32
3800	0.09	-101.59	5.24	47.99	0.09	-15.46	0.29	166.88
4000	0.09	-109.88	5.17	42.46	0.09	-17.39	0.3	161.93
4200	0.1	-119.91	5.1	36.5	0.09	-19.13	0.31	155.62
4400	0.1	-128.93	5.04	30.71	0.09	-20.79	0.33	148.88
4600	0.11	-137.95	4.98	24.84	0.09	-23.13	0.34	141.95
4800	0.11	-148.38	4.93	18.95	0.09	-25.32	0.37	135.25
5000	0.12	-157.78	4.87	13.03	0.09	-28.25	0.39	128.98
5200	0.12	-165.37	4.86	7.11	0.09	-31	0.41	123.49
5400	0.13	-169.8	4.85	1.37	0.09	-33.83	0.43	118.8
5600	0.14	-174.2	4.9	-4.84	0.09	-36.2	0.46	114.54
5800	0.15	179.6	4.95	-11.72	0.09	-40.89	0.49	109.21
6000	0.16	169.47	4.95	-18.49	0.09	-45.13	0.51	103.62
6200	0.17	167.56	5.09	-25.69	0.08	-49.4	0.53	99.68
6400	0.19	161.45	5.16	-35.08	0.09	-54.67	0.58	92.34
6600	0.21	149.25	5.12	-44.17	0.09	-58.68	0.61	84
6800	0.22	137.17	5.05	-53.33	0.08	-66.42	0.64	76.09
7000	0.23	125.16	4.95	-62.81	0.09	-74.28	0.67	68.29
7500	0.26	90.27	4.67	-87.82	0.08	-98.41	0.72	45.14
8000	0.31	48.07	3.97	-115.43	0.08	-126.82	0.72	18.01
8500	0.35	19.23	3.03	-138.66	0.07	-151.5	0.67	-2.88
9000	0.39	2.02	2.36	-158.8	0.07	-172.46	0.63	-18.5
9500	0.41	0.37	1.72	-172.66	0.07	-176.39	0.54	-18.42
10000	0.43	0.44	1.48	174.02	0.11	169.95	0.54	-19.75


