! NEC Compound Semiconductor Devices Ltd.
! 20. August 2002
! NE52418
! NPN GaAs HBT
! Vce = 2 V  Ic = 3 mA
# GHz  S  MA  R  50
!      f         S11             S21             S12             S22
!    GHz     MAG     ANG     MAG     ANG     MAG     ANG     MAG     ANG
    2.00   0.607   -78.4   5.550   108.2   0.066    48.4   0.743   -37.2
    2.10   0.581   -80.8   5.392   105.7   0.068    47.4   0.729   -37.8
    2.20   0.556   -84.4   5.291   103.4   0.067    46.3   0.712   -39.1
    2.30   0.540   -87.3   5.133   100.7   0.069    46.8   0.702   -40.3
    2.40   0.529   -90.6   5.043    98.4   0.072    45.2   0.695   -41.4
    2.50   0.521   -92.0   4.923    96.8   0.073    45.0   0.690   -41.8
    2.60   0.495   -96.6   4.837    93.8   0.071    45.6   0.668   -43.0
    2.70   0.480   -98.4   4.713    91.9   0.075    43.4   0.663   -43.7
    2.80   0.453  -102.8   4.618    89.3   0.074    44.0   0.646   -44.5
    2.90   0.449  -106.2   4.508    87.5   0.078    42.7   0.647   -45.9
    3.00   0.432  -108.3   4.376    85.4   0.076    42.6   0.629   -47.0
    3.10   0.408  -112.4   4.309    83.3   0.079    41.3   0.621   -47.5
    3.20   0.406  -115.8   4.231    81.0   0.078    42.2   0.614   -48.5
    3.30   0.400  -119.1   4.171    79.3   0.081    42.4   0.608   -49.5
    3.40   0.387  -122.5   4.081    77.0   0.078    40.7   0.598   -50.5
    3.50   0.373  -124.4   4.012    75.6   0.081    40.2   0.587   -51.3
    3.60   0.368  -129.9   3.946    73.2   0.083    40.8   0.582   -52.1
    3.70   0.361  -132.4   3.867    71.5   0.082    40.8   0.575   -53.0
    3.80   0.348  -136.2   3.797    69.7   0.083    40.7   0.565   -54.4
    3.90   0.335  -138.6   3.720    68.0   0.085    40.1   0.564   -55.1
    4.00   0.329  -141.3   3.658    66.4   0.084    40.0   0.561   -56.0
    4.50   0.310  -159.4   3.415    57.3   0.089    40.8   0.534   -60.3
    5.00   0.299  -176.4   3.158    49.0   0.097    41.2   0.524   -67.1
    5.50   0.298   170.1   2.944    41.3   0.106    42.3   0.501   -72.6
    6.00   0.314   157.1   2.761    33.5   0.108    42.0   0.492   -78.1
    6.50   0.327   144.8   2.629    25.8   0.120    41.7   0.477   -84.3
    7.00   0.344   133.1   2.482    18.2   0.134    40.2   0.454   -90.3
    7.50   0.366   122.7   2.363    10.2   0.145    37.6   0.429   -97.1
    8.00   0.398   113.0   2.276     3.1   0.159    36.1   0.399  -106.2
    8.50   0.440   104.8   2.184    -5.3   0.176    33.0   0.374  -119.0
    9.00   0.485    97.8   2.098   -13.7   0.194    27.5   0.359  -136.5
    9.50   0.542    89.5   1.985   -22.8   0.206    23.0   0.367  -155.6
   10.00   0.600    82.4   1.877   -31.9   0.225    16.4   0.398  -174.3
   10.50   0.650    76.1   1.762   -41.2   0.234    10.2   0.440   167.8
   11.00   0.697    70.7   1.629   -49.6   0.242     3.6   0.484   152.9
   11.50   0.739    65.2   1.516   -58.7   0.252    -3.2   0.522   137.8
   12.00   0.772    60.3   1.401   -67.4   0.255    -9.6   0.556   123.6
   12.50   0.797    54.3   1.282   -76.4   0.255   -17.0   0.600   109.7
   13.00   0.815    48.8   1.152   -85.1   0.252   -24.5   0.643    96.5
   13.50   0.827    42.5   1.019   -94.3   0.242   -31.4   0.705    85.4
   14.00   0.832    35.9   0.895  -102.7   0.229   -38.8   0.742    75.6
   14.50   0.837    30.6   0.787  -110.1   0.216   -43.2   0.808    69.7
   15.00   0.831    26.2   0.678  -118.6   0.209   -50.8   0.838    62.6
   15.50   0.837    23.3   0.589  -126.0   0.196   -54.5   0.881    58.0
   16.00   0.818    21.7   0.498  -133.5   0.186   -59.7   0.897    52.8

!      f    Fmin      Gammaopt     Rn/50
!    GHz      dB     MAG     ANG       -
    0.80    0.24   0.390     6.0    0.20
    1.00    0.43   0.420    13.0    0.21
    1.20    0.44   0.440    17.0    0.22
    1.40    0.56   0.540    16.6    0.20
    1.60    0.60   0.450    21.6    0.21
    1.80    0.67   0.430    26.0    0.21
    2.00    0.75   0.430    31.4    0.21
    2.20    0.83   0.420    35.1    0.21
    2.40    0.91   0.410    37.0    0.20
    2.60    0.99   0.350    44.0    0.20
