! Network Analyzer HP8722D.06.14 Serial No. US36140511
! Hewlett-Packard
!  9 Jun 1999  11:47:04
! Frequency       S11                S21                S12                S22
# HZ  S  DB R 50
100000000  -22.685    168.14    20.284    176.37   -22.513   -1.2662   -32.665    161.96   
174500000  -22.135    156.34    20.254    173.57   -22.43   -2.3277   -31.966    161.74   
249000000  -21.916    147.4    20.214    170.98   -22.477   -2.9114   -31.654    154.89   
323500000  -21.552    139.35    20.204    168.33   -22.48   -3.9922   -31.391    146.25   
398000000  -21.034    132.06    20.173    165.86   -22.443   -5.0153   -30.875    137.86   
472500000  -20.551    124.92    20.134    163.2   -22.48   -5.4369   -30.583    131.6   
547000000  -19.993    118.6    20.115    160.61   -22.502   -6.3268   -30.04    125.87   
621500000  -19.457    112.84    20.089    158.1   -22.472   -7.2592   -29.595    120.43   
696000000  -19.023    107.44    20.04    155.47   -22.525   -8.1203   -29.032    114.21   
770500000  -18.461    102.41    19.996    153.17   -22.5   -9.0912   -28.805    110.01   
845000000  -17.99    97.821    19.949    150.42   -22.533   -10.035   -28.335    105.38   
919500000  -17.579    93.425    19.921    148   -22.536   -10.712   -27.868    101.41   
994000000  -17.111    89.694    19.873    145.49   -22.544   -11.582   -27.493    98.929   
1068500000  -16.724    86.169    19.831    142.99   -22.562   -12.287   -27.161    95.937   
1143000000  -16.345    82.613    19.802    140.41   -22.522   -13.215   -26.745    93.198   
1217500000  -16.036    79.788    19.737    138.21   -22.581   -13.969   -26.443    90.75   
1292000000  -15.659    76.495    19.697    135.55   -22.599   -14.999   -26.096    89.323   
1366500000  -15.325    73.714    19.62    133.2   -22.589   -15.849   -25.921    86.862   
1441000000  -15.038    71.064    19.587    130.83   -22.593   -16.648   -25.636    84.994   
1515500000  -14.748    68.513    19.536    128.5   -22.618   -17.415   -25.331    84.772   
1590000000  -14.512    66.011    19.46    126.18   -22.644   -18.18   -25.102    84.297   
1664500000  -14.27    63.52    19.426    123.67   -22.621   -19.081   -24.831    83.054   
1739000000  -14.033    61.08    19.388    121.3   -22.651   -19.884   -24.566    82.847   
1813500000  -13.85    58.918    19.342    119.18   -22.634   -20.777   -24.289    81.888   
1888000000  -13.734    56.32    19.208    116.89   -22.726   -21.783   -24.14    82.213   
1962500000  -13.528    53.929    19.151    114.29   -22.704   -22.463   -23.89    80.756   
2037000000  -13.346    51.476    19.151    112.06   -22.674   -23.233   -23.534    79.448   
2111500000  -13.181    49.281    19.101    110   -22.723   -24.048   -23.39    79.137   
2186000000  -13.059    46.953    19.013    107.7   -22.722   -24.708   -23.214    78.089   
2260500000  -12.953    44.55    18.93    105.3   -22.773   -25.703   -23.031    76.52   
2335000000  -12.84    41.987    18.929    102.96   -22.742   -26.524   -22.705    75.322   
2409500000  -12.769    39.415    18.902    100.74   -22.774   -27.323   -22.644    74.827   
2484000000  -12.633    37.218    18.808    98.637   -22.749   -28.196   -22.43    72.411   
2558500000  -12.62    35.162    18.656    96.416   -22.966   -29.173   -22.453    70.192   
2633000000  -12.578    32.874    18.622    94.628   -22.959   -29.636   -22.335    68.99   
2707500000  -12.508    30.108    18.549    92.33   -22.974   -30.564   -22.265    67.716   
2782000000  -12.395    27.984    18.502    89.738   -23.007   -31.538   -22.229    64.725   
2856500000  -12.387    25.557    18.498    87.595   -22.918   -32.786   -22.086    62.45   
2931000000  -12.334    23.914    18.428    85.816   -22.925   -33.094   -22.006    60.565   
3005500000  -12.26    21.202    18.352    83.673   -22.988   -33.275   -22.009    58.181   
3080000000  -12.208    18.531    18.279    81.078   -23.073   -35.108   -22.001    53.987   
3154500000  -12.141    16.442    18.303    78.799   -22.992   -36.682   -21.786    51.998   
3229000000  -12.168    14.443    18.216    77.027   -22.872   -37.035   -21.835    50.819   
3303500000  -12.096    12.2    18.123    75.034   -23.082   -37.132   -21.874    48.104   
3378000000  -12.079    9.7572    18.059    72.496   -23.144   -38.636   -21.838    45.459   
3452500000  -12.031    7.5737    18.048    70.227   -23.026   -40.048   -21.75    43.592   
3527000000  -11.951    5.5632    18.047    68.382   -23.036   -40.218   -21.798    42.005   
3601500000  -11.955    3.5335    17.93    66.363   -23.147   -40.842   -21.76    40.612   
3676000000  -11.958    1.3994    17.843    64.229   -23.115   -41.946   -21.774    39.38   
3750500000  -11.91   -1.0739    17.824    61.603   -23.169   -43.352   -21.828    37.472   
3825000000  -11.895   -2.4596    17.83    59.601   -23.145   -43.432   -21.785    36.837   
3899500000  -11.889   -4.5882    17.702    57.751   -23.228   -44.599   -21.866    36.503   
3974000000  -11.908   -6.8788    17.687    55.585   -23.261   -45.349   -21.814    36.657   
4048500000  -11.931   -8.8962    17.637    53.369   -23.267   -45.817   -21.707    35.991   
4123000000  -12.056   -10.558    17.563    51.402   -23.275   -46.876   -21.627    36.983   
4197500000  -12.08   -12.677    17.466    49.248   -23.291   -47.851   -21.71    36.725   
4272000000  -12.132   -14.849    17.453    47.215   -23.246   -48.635   -21.607    35.715   
4346500000  -12.165   -16.577    17.456    45.06   -23.289   -48.94   -21.383    36.626   
4421000000  -12.252   -18.324    17.438    43.073   -23.394   -50.192   -21.385    37.498   
4495500000  -12.406   -20.495    17.246    41.189   -23.363   -51.022   -21.448    37.344   
4570000000  -12.451   -23.423    17.296    38.739   -23.37   -51.556   -21.194    36.729   
4644500000  -12.551   -25.318    17.243    36.928   -23.415   -51.828   -21.057    37.286   
4719000000  -12.785   -27.794    17.217    35.592   -23.475   -53.152   -21.276    37.702   
4793500000  -13.019   -30.483    17.152    33.172   -23.5   -53.711   -21.395    38.057   
4868000000  -13.166   -33.58    17.137    30.629   -23.513   -54.3   -21.34    38.489   
4942500000  -13.408   -35.609    17.12    28.861   -23.522   -55.199   -21.382    39.839   
5017000000  -13.655   -38.142    17.146    26.862   -23.5   -56.382   -21.437    41.476   
5091500000  -13.879   -41.077    17.127    24.542   -23.498   -56.337   -21.54    42.205   
5166000000  -14.103   -43.995    17.009    22.37   -23.515   -56.917   -21.356    41.803   
5240500000  -14.263   -47.612    17.027    20.038   -23.582   -58.635   -21.418    41.884   
5315000000  -14.577   -50.286    16.986    18.296   -23.513   -59.551   -21.484    42.144   
5389500000  -14.646   -54.167    16.976    16.12   -23.513   -59.507   -21.623    42.976   
5464000000  -14.822   -57.938    16.95    13.861   -23.708   -60.264   -21.763    43.32   
5538500000  -14.964   -61.604    16.862    11.625   -23.668   -61.463   -21.851    42.612   
5613000000  -15.066   -65.768    16.832    9.3974   -23.65   -62.978   -22.224    42.605   
5687500000  -15.024   -69.576    16.78    7.115   -23.615   -62.758   -22.466    42.601   
5762000000  -15.008   -72.824    16.771    5.3819   -23.675   -63.108   -22.948    42.177   
5836500000  -14.959   -77.178    16.711    3.3536   -23.837   -64.402   -23.29    41.829   
5911000000  -14.834   -81.615    16.694    1.2854   -23.7   -65.435   -23.697    43.517   
5985500000  -14.761   -86.233    16.638   -.9489   -23.694   -65.381   -24.18    45.383   
6060000000  -14.677   -90.493    16.658   -3.3371   -23.786   -66.323   -24.694    45.404   
6134500000  -14.586   -94.053    16.593   -5.4341   -23.818   -67.368   -25.169    45.825   
6209000000  -14.446   -98.188    16.572   -7.2551   -23.739   -68.075   -25.543    45.981   
6283500000  -14.329   -101.97    16.501   -9.576   -23.91   -68.938   -26.195    46.951   
6358000000  -14.184   -105.64    16.524   -11.904   -23.855   -69.721   -26.912    47.071   
6432500000  -14.049   -108.98    16.466   -14.082   -23.831   -70.091   -27.262    47.41   
6507000000  -13.903   -112.08    16.394   -15.864   -23.922   -70.668   -27.706    50.264   
6581500000  -13.781   -115.59    16.382   -18.195   -23.949   -71.249   -28.289    51.731   
6656000000  -13.691   -118.88    16.337   -20.249   -23.964   -72.268   -28.736    52.892   
6730500000  -13.512   -122.42    16.367   -22.636   -23.859   -72.186   -28.586    54.834   
6805000000  -13.474   -126.03    16.275   -24.681   -23.996   -72.817   -28.7    58.218   
6879500000  -13.429   -129.45    16.232   -26.749   -24.022   -73.582   -28.643    59.065   
6954000000  -13.358   -133.05    16.208   -28.758   -23.961   -74.95   -28    61.044   
7028500000  -13.336   -137.06    16.203   -30.983   -23.953   -74.78   -27.698    63.371   
7103000000  -13.322   -141.32    16.178   -33.39   -23.936   -75.274   -26.996    61.985   
7177500000  -13.31   -145.56    16.14   -35.476   -23.909   -75.899   -26.2    62.792   
7252000000  -13.287   -149.76    16.132   -37.551   -23.909   -76.532   -25.443    62.483   
7326500000  -13.263   -154.36    16.114   -39.865   -23.809   -76.72   -24.598    62.25   
7401000000  -13.284   -159.59    16.044   -42.4   -23.816   -77.351   -23.799    61.361   
7475500000  -13.29   -164.43    16.062   -44.617   -23.909   -78.14   -22.925    60.147   
7550000000  -13.18   -169.09    16.025   -46.673   -23.723   -78.447   -22.059    59.908   
7624500000  -13.113   -173.97    16.006   -49.033   -23.772   -78.701   -21.358    58.462   
7699000000  -13.025   -179.02    15.927   -51.228   -23.691   -80.083   -20.365    56.515   
7773500000  -12.838    175.69    15.935   -53.911   -23.555   -80.732   -19.742    56.162   
7848000000  -12.647    171.01    15.946   -56.438   -23.613   -80.781   -18.994    54.668   
7922500000  -12.445    166.22    15.801   -58.501   -23.67   -81.869   -18.37    53.991   
7997000000  -12.312    161.77    15.764   -60.981   -23.471   -82.713   -17.74    52.744   
8071500000  -12.005    157.85    15.734   -63.39   -23.444   -83.436   -17.272    52.177   
8146000000  -11.752    153.5    15.673   -65.845   -23.404   -83.495   -16.822    51.358   
8220500000  -11.572    149.69    15.602   -68.086   -23.489   -84.613   -16.269    50.738   
8295000000  -11.311    146.31    15.539   -70.42   -23.366   -85.794   -15.831    50.403   
8369500000  -11.009    143.56    15.522   -72.948   -23.146   -86.626   -15.505    50.155   
8444000000  -10.801    140.84    15.4   -75.296   -23.094   -86.962   -15.294    49.101   
8518500000  -10.597    137.92    15.282   -77.451   -23.215   -88.19   -14.999    47.964   
8593000000  -10.408    135.81    15.184   -80.338   -23.055   -89.092   -14.575    47.997   
8667500000  -10.144    133.57    15.18   -82.076   -22.965   -89.852   -14.589    48.281   
8742000000  -9.9799    131.93    15.14   -84.262   -22.949   -90.497   -14.466    47.265   
8816500000  -9.8603    130.41    15.052   -86.556   -23.01   -90.795   -14.377    46.997   
8891000000  -9.6779    128.31    14.913   -88.684   -22.781   -92.833   -14.239    47.303   
8965500000  -9.4681    126.76    14.893   -91.02   -22.66   -93.399   -14.26    47.146   
9040000000  -9.336    125.61    14.832   -92.711   -22.757   -93.921   -14.16    47.491   
9114500000  -9.2452    123.86    14.794   -94.623   -22.653   -94.969   -14.147    47.661   
9189000000  -9.1025    122.92    14.704   -97.079   -22.563   -95.801   -14.191    47.359   
9263500000  -8.9727    121.43    14.674   -99.325   -22.485   -96.968   -14.146    47.439   
9338000000  -8.9874    119.75    14.529   -101.01   -22.481   -97.45   -14.178    47.704   
9412500000  -8.7858    118.37    14.56   -103.11   -22.461   -98.494   -14.199    46.703   
9487000000  -8.6203    117.01    14.502   -104.67   -22.343   -98.579   -14.163    46.648   
9561500000  -8.4826    115.67    14.476   -107.06   -22.26   -99.647   -14.076    46.452   
9636000000  -8.3646    113.68    14.434   -109.39   -22.155   -100.99   -14.027    45.711   
9710500000  -8.235    111.38    14.448   -111.51   -21.988   -101.19   -13.959    43.587   
9785000000  -8.1239    108.87    14.37   -113.97   -21.896   -101.44   -13.655    42.001   
9859500000  -7.953    106.38    14.389   -115.97   -21.854   -102.75   -13.552    40.467   
9934000000  -7.9382    103.32    14.336   -118.29   -21.608   -104.33   -13.327    37.039   
10008500000  -7.8982    100.07    14.278   -121.09   -21.414   -105.32   -12.985    33.496   
10083000000  -7.8081    96.687    14.269   -123.67   -21.221   -106.12   -12.691    30.557   
10157500000  -7.7531    93.301    14.218   -126.15   -21.174   -107.25   -12.459    27   
10232000000  -7.7037    90.011    14.185   -128.16   -20.971   -109.23   -12.109    22.305   
10306500000  -7.7159    85.989    14.1   -130.81   -20.764   -111.19   -11.672    17.795   
10381000000  -7.6843    81.804    14.051   -133.65   -20.642   -112.4   -11.333    14.124   
10455500000  -7.5726    77.54    14.043   -136.41   -20.487   -114   -10.894    10.147   
10530000000  -7.5597    73.873    14.058   -138.59   -20.395   -116.39   -10.562    6.3954   
10604500000  -7.541    69.938    13.906   -141.15   -20.303   -118.03   -10.192    2.6312   
10679000000  -7.4676    65.62    13.911   -143.71   -20.217   -120.34   -9.8172   -1.4941   
10753500000  -7.4192    62.041    13.873   -146.52   -19.965   -121.17   -9.3127   -4.0443   
10828000000  -7.4326    57.862    13.771   -149.16   -19.949   -122.91   -9.069   -6.8582   
10902500000  -7.3432    53.49    13.66   -151.88   -20.024   -125.79   -8.8353   -10.478   
10977000000  -7.298    49.956    13.591   -154.39   -19.848   -127.74   -8.3481   -13.163   
11051500000  -7.2191    46.526    13.512   -156.98   -19.721   -129.26   -8.1683   -13.857   
11126000000  -7.2448    43.005    13.338   -159.52   -19.738   -130.1   -7.9673   -16.442   
11200500000  -7.1456    39.254    13.216   -162.26   -19.749   -132.46   -7.6959   -18.961   
11275000000  -7.0373    36.201    13.221   -164.59   -19.593   -135.33   -7.4149   -20.359   
11349500000  -7.0243    33.414    13.1   -166.98   -19.438   -136.27   -7.2999   -21.636   
11424000000  -7.0357    30.436    12.898   -169.13   -19.557   -137.39   -7.1277   -23.604   
11498500000  -6.9999    27.125    12.752   -172.4   -19.545   -139.43   -6.924   -24.261   
11573000000  -6.9411    24.204    12.712   -174.71   -19.443   -141.7   -6.8027   -24.976   
11647500000  -6.9126    22.072    12.679   -176.83   -19.36   -142.9   -6.7255   -26.971   
11722000000  -6.9813    19.925    12.444   -178.84   -19.372   -145.1   -6.5517   -29.067   
11796500000  -6.9124    17.143    12.432    178.53   -19.17   -146.14   -6.3779   -29.155   
11871000000  -6.944    14.63    12.373    176.02   -19.117   -147.65   -6.3109   -30.071   
11945500000  -7.0255    12.191    12.264    174.05   -19.077   -149.25   -6.2708   -32.676   
12020000000  -7.1099    9.8479    12.143    171.74   -19.044   -151.44   -6.1725   -33.566   
12094500000  -7.1405    7.5696    12.037    169.34   -18.877   -153.52   -6.1005   -35.831   
12169000000  -7.1457    4.9178    12.007    166.36   -18.587   -154.86   -5.88   -37.691   
12243500000  -7.2526    2.4445    11.867    164.44   -18.601   -156.31   -5.8559   -38.771   
12318000000  -7.2874   -.7223    11.795    162.04   -18.535   -158.81   -5.9198   -40.875   
12392500000  -7.347   -3.8535    11.798    159.28   -18.343   -161.49   -5.8388   -44.037   
12467000000  -7.3992   -6.9942    11.676    156.77   -18.216   -163.17   -5.6217   -46.467   
12541500000  -7.5408   -10.706    11.549    154.21   -18.154   -165.24   -5.549   -48.54   
12616000000  -7.6058   -14.683    11.407    151.65   -18.084   -168.44   -5.5083   -52.207   
12690500000  -7.6408   -18.526    11.342    148.79   -18.018   -170.74   -5.4181   -55.567   
12765000000  -7.6548   -22.569    11.274    146.32   -17.969   -172.78   -5.3243   -58.807   
12839500000  -7.7297   -27.305    11.144    143.89   -17.971   -175.06   -5.2828   -62.104   
12914000000  -7.7383   -32.011    11.025    140.96   -17.927   -177.92   -5.1363   -66.051   
12988500000  -7.6879   -37.224    10.91    137.77   -17.787    179.74   -4.9345   -69.267   
13063000000  -7.6331   -42.249    10.838    134.97   -17.791    177.46   -4.8662   -72.673   
13137500000  -7.5706   -47.421    10.66    132.23   -17.823    174.89   -4.7292   -76.562   
13212000000  -7.5393   -52.182    10.503    129.4   -17.936    172.53   -4.5884   -79.908   
13286500000  -7.3836   -57.301    10.334    126.21   -17.79    169.93   -4.3634   -82.757   
13361000000  -7.1974   -62.13    10.197    123.06   -17.729    167.5   -4.1458   -85.934   
13435500000  -7.069   -66.872    9.9431    120.58   -17.776    165.62   -4.1074   -88.588   
13510000000  -6.8342   -71.5    9.7789    117.65   -18.078    163.14   -4.0642   -91.708   
13584500000  -6.6514   -75.981    9.5227    114.41   -17.884    158.69   -3.8415   -95.028   
13659000000  -6.5342   -78.662    9.3625    112.97   -17.975    158.76   -3.7463   -96.361   
13733500000  -6.3296   -83.136    9.0836    109.85   -18.193    157.02   -3.6053   -98.933   
13808000000  -6.1485   -86.84    8.8349    106.55   -18.229    153.28   -3.4904   -100.57   
13882500000  -5.9942   -89.787    8.5911    104.6   -18.052    151.57   -3.2973   -102.43   
13957000000  -5.8504   -92.304    8.4314    102.6   -18.264    149.61   -3.194   -104.6   
14031500000  -5.7286   -95.265    8.1228    99.956   -18.312    147.64   -3.0848   -106.16   
14106000000  -5.6058   -98.289    7.8784    97.023   -18.333    145.65   -3.0519   -107.09   
14180500000  -5.4788   -100.6    7.667    95.105   -18.452    143.25   -3.0448   -109.37   
14255000000  -5.4765   -103.19    7.3962    94.401   -18.462    142.83   -2.8351   -110.61   
14329500000  -5.361   -105.38    7.1336    91.556   -18.49    140.66   -2.8575   -110.54   
14404000000  -5.3566   -107.64    6.8762    90.015   -18.608    139.73   -2.9002   -111.99   
14478500000  -5.2484   -109.79    6.728    88.469   -18.608    137.23   -2.8008   -113.92   
14553000000  -5.2837   -111.94    6.5796    86.467   -18.612    134.59   -2.8418   -114.64   
14627500000  -5.2161   -114.32    6.2692    84.856   -18.571    133.49   -2.8567   -115.64   
14702000000  -5.1865   -116.17    6.0957    82.315   -18.592    131.97   -2.7144   -117.39   
14776500000  -5.2144   -118.09    5.9238    81.01   -18.623    129.83   -2.7847   -117.91   
14851000000  -5.2088   -120.43    5.8056    79.052   -18.639    128.65   -2.9552   -119   
14925500000  -5.1599   -123.56    5.5148    77.04   -18.615    127.24   -2.94   -120.7   
15000000000  -5.1406   -125.16    5.4069    75.196   -18.649    125.11   -2.86   -121.44   

