! SIEMENS Small Signal Semiconductors
! BFQ196
! Si NPN RF Bipolar Junction Transistor in CEREC-X
! VCE = 8 V     IC = 50 mA     
! Common Emitter S-Parameters:                         July  1992
# GHz  S  MA  R  50
!  f         S11            S21            S12            S22
! GHz     MAG   ANG      MAG   ANG      MAG   ANG      MAG   ANG
 0.100 0.6876 -141.8  33.663  114.7  0.0198   42.5  0.4916  -94.5
 0.110 0.6991 -145.1  31.201  112.4  0.0204   42.0  0.4689  -99.2
 0.150 0.7242 -155.0  23.965  105.5  0.0224   41.4  0.4084 -114.1
 0.200 0.7392 -162.7  18.412   99.8  0.0245   42.4  0.3690 -127.2
 0.250 0.7480 -167.7  14.930   95.8  0.0266   44.5  0.3479 -136.4
 0.300 0.7535 -171.3  12.535   92.7  0.0289   46.4  0.3355 -143.3
 0.400 0.7568 -176.9   9.464   87.8  0.0334   50.3  0.3224 -152.9
 0.500 0.7604  179.1   7.599   84.0  0.0385   53.2  0.3176 -159.3
 0.600 0.7600  175.7   6.345   80.6  0.0436   55.1  0.3152 -164.1
 0.700 0.7641  172.9   5.448   77.5  0.0491   56.4  0.3149 -167.8
 0.800 0.7663  170.1   4.779   74.8  0.0546   57.3  0.3158 -170.7
 0.850 0.7664  169.0   4.495   73.4  0.0575   57.3  0.3148 -171.9
 0.900 0.7675  167.8   4.252   72.0  0.0602   57.6  0.3162 -173.2
 0.950 0.7659  166.5   4.025   70.7  0.0630   57.6  0.3157 -174.4
 1.000 0.7677  165.2   3.826   69.3  0.0658   57.5  0.3165 -175.5
 1.200 0.7694  160.7   3.198   64.3  0.0771   57.0  0.3201 -178.9
 1.400 0.7739  156.4   2.754   59.4  0.0883   56.0  0.3246  177.8
 1.500 0.7731  154.2   2.575   57.0  0.0936   55.2  0.3269  176.4
 1.600 0.7708  152.6   2.419   54.6  0.0989   54.5  0.3301  175.2
 1.650 0.7768  151.4   2.349   53.3  0.1016   54.1  0.3310  174.5
 1.700 0.7791  150.3   2.286   52.3  0.1044   53.7  0.3324  173.9
 1.750 0.7790  149.2   2.224   51.1  0.1069   53.2  0.3333  173.2
 1.800 0.7757  148.6   2.164   50.2  0.1098   52.8  0.3363  172.7
 2.000 0.7835  144.4   1.960   45.6  0.1203   50.9  0.3424  170.3
 2.200 0.7827  140.9   1.789   41.4  0.1311   49.0  0.3484  168.1
 2.400 0.7900  137.0   1.656   37.0  0.1416   46.9  0.3568  166.0
 2.500 0.7862  134.9   1.589   34.7  0.1467   46.0  0.3623  165.2
 2.600 0.7885  133.1   1.540   32.7  0.1521   44.9  0.3664  164.2
 2.800 0.7902  129.3   1.440   28.5  0.1624   42.7  0.3747  162.0
 3.000 0.7872  125.8   1.358   24.5  0.1720   40.5  0.3821  160.0
!
! SIEMENS AG  Semiconductor Group, Munich
