       !AT-41533
       !S and NOISE PARAMETERS at Vce=5V Ic=25mA. LAST UPDATED 01-25-95

       # ghz s ma r 50 

       0.1     0.37    -62     31.606  129     0.013   73      0.74    -19
       0.2     0.23    -93     19.253  110     0.022   73      0.61    -19
       0.3     0.17    -114    13.492  100     0.031   75      0.56    -18
       0.4     0.14    -131    10.339  94      0.040   76      0.54    -17
       0.5     0.13    -153    8.375   89      0.049   76      0.51    -19
       0.6     0.13    -168    7.042   85      0.058   76      0.51    -19
       0.7     0.12    -177    6.070   82      0.067   76      0.50    -20
       0.8     0.12    172     5.329   79      0.076   76      0.50    -22
       0.9     0.13    163     4.764   76      0.086   75      0.49    -23
       1.0     0.13    154     4.305   73      0.095   74      0.49    -25
       1.1     0.14    148     3.931   71      0.104   74      0.49    -25
       1.2     0.15    143     3.629   68      0.114   73      0.49    -27
       1.3     0.15    136     3.357   66      0.123   72      0.49    -28
       1.4     0.16    132     3.139   63      0.132   71      0.48    -30
       1.5     0.17    128     2.945   61      0.142   71      0.48    -31
       1.6     0.17    124     2.773   59      0.151   70      0.48    -32
       1.7     0.18    120     2.630   56      0.160   69      0.48    -34
       1.8     0.19    117     2.493   54      0.170   68      0.48    -35
       1.9     0.20    114     2.379   52      0.179   67      0.48    -37
       2.0     0.20    111     2.274   50      0.189   66      0.48    -38
       2.1     0.21    108     2.182   48      0.198   65      0.48    -40
       2.2     0.22    106     2.098   46      0.208   64      0.47    -41
       2.3     0.22    104     2.022   44      0.218   63      0.47    -43
       2.4     0.23    102     1.949   42      0.228   62      0.47    -44
       2.5     0.24    99      1.886   40      0.237   61      0.47    -46
       2.6     0.24    98      1.827   38      0.247   60      0.46    -47
       2.7     0.25    96      1.773   36      0.257   59      0.46    -49
       2.8     0.26    94      1.723   34      0.267   58      0.46    -51
       2.9     0.26    92      1.677   32      0.277   57      0.46    -52
       3.0     0.27    90      1.632   31      0.287   56      0.45    -54
       3.1     0.27    88      1.589   29      0.296   55      0.45    -56
       3.2     0.28    88      1.556   27      0.307   54      0.45    -58
       3.3     0.29    86      1.522   25      0.318   53      0.44    -60
       3.4     0.29    85      1.490   24      0.328   52      0.44    -62
       3.5     0.30    83      1.460   22      0.339   51      0.44    -64
       3.6     0.31    82      1.432   20      0.350   50      0.43    -66
       3.7     0.31    80      1.404   19      0.360   48      0.43    -68
       3.8     0.32    79      1.380   17      0.371   47      0.42    -70
       3.9     0.33    77      1.355   15      0.381   46      0.42    -72
       4.0     0.33    76      1.331   14      0.392   45      0.42    -74
       4.1     0.34    74      1.310   12      0.403   44      0.41    -76
       4.2     0.34    73      1.289   11      0.413   42      0.41    -79
       4.3     0.35    71      1.268   9       0.424   41      0.41    -81
       4.4     0.36    70      1.249   8       0.434   40      0.40    -83
       4.5     0.36    68      1.229   6       0.445   39      0.40    -85
       4.6     0.37    67      1.211   5       0.455   37      0.39    -87
       4.7     0.38    65      1.196   3       0.466   36      0.39    -90
       4.8     0.38    64      1.179   2       0.476   35      0.39    -92
       4.9     0.39    62      1.163   0       0.486   34      0.38    -94
       5.0     0.39    60      1.147   -1      0.496   32      0.38    -97
       5.1     0.40    59      1.131   -2      0.506   31      0.37    -99

       0.1     1.3     0.08    13      0.12
       0.9     1.6     0.19    -170    0.10
       1.8     1.9     0.42    -126    0.16
       2.4     2.1     0.55    -105    0.32