! SIEMENS Small Signal Semiconductors
! CLY15
! GaAs Power FET in SOT223
! VDS = 5 V     ID = 1.4 A     
! Common Source S-Parameters:                           May  1996
# GHz  S  MA  R  50
!  f         S11            S21            S12            S22
! GHz     MAG   ANG      MAG   ANG      MAG   ANG      MAG   ANG
 0.200  0.9000 -151.1   7.610   98.8  0.0100   46.5  0.8400  176.7
 0.250  0.8900 -160.6   6.180   92.4  0.0200   43.4  0.8200  174.7
 0.300  0.8900 -167.8   5.190   87.5  0.0200   46.5  0.8200  172.9
 0.350  0.8900 -173.7   4.450   83.3  0.0200   46.0  0.8200  171.8
 0.400  0.8800 -178.7   3.900   79.4  0.0200   46.5  0.8200  169.7
 0.450  0.8900  177.0   3.470   75.9  0.0200   47.3  0.8200  168.3
 0.500  0.8800  173.2   3.110   72.8  0.0200   47.9  0.8200  166.7
 0.550  0.8800  169.6   2.820   69.5  0.0200   47.8  0.8200  165.5
 0.600  0.8900  166.4   2.590   66.6  0.0300   47.4  0.8200  163.9
 0.650  0.8800  163.1   2.380   63.9  0.0300   47.4  0.8200  162.6
 0.700  0.8900  160.3   2.200   61.1  0.0300   46.5  0.8200  161.0
 0.750  0.8900  157.5   2.050   58.4  0.0300   45.6  0.8200  159.6
 0.800  0.8900  154.9   1.910   55.9  0.0300   45.3  0.8200  158.0
 0.850  0.8900  152.1   1.790   53.2  0.0300   44.8  0.8200  156.8
 0.900  0.8900  149.7   1.690   50.7  0.0300   43.9  0.8200  155.4
 0.950  0.8900  147.1   1.590   48.4  0.0400   42.7  0.8200  154.1
 1.000  0.8900  144.7   1.510   45.7  0.0400   42.0  0.8200  152.8
 1.200  0.8900  135.5   1.240   36.2  0.0400   37.8  0.8300  147.3
 1.400  0.9000  127.1   1.040   27.1  0.0500   32.2  0.8300  141.9
 1.600  0.9100  119.1   0.900   18.3  0.0500   27.4  0.8400  136.8
 1.800  0.9200  111.1   0.780   10.1  0.0600   22.5  0.8400  131.6
 2.000  0.9200  103.7   0.680    2.1  0.0600   18.2  0.8500  126.3
 2.200  0.9300   96.6   0.610   -5.1  0.0600   12.5  0.8600  121.3
 2.400  0.9300   89.8   0.540  -12.0  0.0700    7.3  0.8600  116.1
 2.600  0.9300   83.2   0.480  -18.6  0.0700    2.6  0.8700  111.4
 2.800  0.9300   77.3   0.430  -24.0  0.0700   -2.6  0.8800  106.3
 3.000  0.9300   71.8   0.390  -29.3  0.0700   -7.2  0.8900  101.8
 3.200  0.9200   66.6   0.370  -33.5  0.0700  -12.1  0.9000   97.2
 3.400  0.9200   61.8   0.340  -37.2  0.0700  -16.8  0.9100   92.5
 3.600  0.9100   57.9   0.320  -40.5  0.0700  -21.1  0.9100   88.8
 3.800  0.9000   54.1   0.320  -43.9  0.0700  -24.9  0.9200   85.1
 4.000  0.8800   50.5   0.310  -48.3  0.0700  -27.6  0.9200   81.4
 4.200  0.8700   47.8   0.320  -53.8  0.0700  -31.5  0.9200   78.1
 4.400  0.8600   45.7   0.320  -60.9  0.0700  -33.4  0.9200   74.9
 4.600  0.8500   43.4   0.320  -68.9  0.0700  -35.4  0.9200   72.2
 4.800  0.8500   42.3   0.310  -77.5  0.0700  -37.2  0.9200   69.3
 5.000  0.8600   40.3   0.300  -86.7  0.0700  -39.3  0.9200   66.2
 5.200  0.8700   37.7   0.280  -94.5  0.0700  -41.6  0.9200   63.1
 5.400  0.8800   35.2   0.260 -101.8  0.0700  -44.0  0.9200   59.6
 5.600  0.8900   32.1   0.240 -108.4  0.0800  -48.5  0.9200   56.6
 5.800  0.9000   29.0   0.220 -114.5  0.0800  -50.3  0.9200   53.0
 6.000  0.9000   26.0   0.210 -121.1  0.0800  -54.0  0.9300   49.0
!
! SIEMENS AG  Semiconductor Group, Munich
